 ****** PrimeSim HSPICE -- T-2022.06 win64 (May 20 2022 7637141) ******
  Copyright (c) 1986 - 2025 by Synopsys, Inc. All Rights Reserved.
  This software and the associated documentation are proprietary
  to Synopsys, Inc. This software may only be used in accordance
  with the terms and conditions of a written license agreement with
  Synopsys, Inc. All other use, reproduction, or distribution of
  this software is strictly prohibited.
  Input File: driver\act1out.spi                                                
  Command line options: C:\synopsys\Hspice_T-2022.06\WIN64\hspice.com -i driver\act1out.spi -o driver\act1out
  Start time: Sat Dec  6 14:07:49 2025
  lic:  
  lic: FLEXlm: SDK_12.10 
  lic: USER:   sh3qm                HOSTNAME: rd78ece-emclab 
  lic: HOSTID: 00ff89f5aa52         PID:      14676 
  lic: Using FLEXlm license file: 
  lic: 1704@synopsys.lic.mst.edu 
  lic: Checkout 1 hspice 
  lic: License/Maintenance for hspice will expire on 04-may-2026/2025.06 
  lic: 1(in_use)/50(total) FLOATING license(s) on SERVER 1704@synopsys.lic.mst.e
 du 
  lic:   
1****** PrimeSim HSPICE -- T-2022.06 win64 (May 20 2022 7637141) ******
 ******  
 *typ c_comp extraction curve for model driver

 ****** mos   model parameters tnom=  25.000 temp=  25.000 ******
 ***************************************************************************
 ***        model parameters  model name:   0:nfet             model type:nmos   ***
 ***************************************************************************

   *** general parameters ***
    deriv=   0.           

   ***  level 49  model parameters  ***

       hspver=    2006.03               level=         49         
      version=        3.1            paramchk=          0         
       apwarn=          1                lite=          0         
       vgslim=          0             binUnit=          1         
       capMod=          2               xpart=        0.5         
       mobMod=          1              nqsMod=          0         
       stiMod=          0                 elm=          5         
     sfvtflag=          0                 tox=      4e-09 meter   
           xj=      1e-07 meter       binflag=          0         
         lmin=          0 meter          lmax=          0 meter   
         wmin=          0 meter          wmax=          0 meter   
         lref=          0 meter          wref=          0 meter   
         lint=7.63177e-09 meter          wint=1.79871e-09 meter   
        lmult=          1               wmult=          1         
           ll=          0                 lln=          1         
           lw=          0                 lwn=          1         
          lwl=          0                  wl=          0         
          wln=          1                  ww=          0         
          wwn=          1                 wwl=          0         
          dwg=-3.2689e-09 m/V             dwb=7.68589e-09 m/V^1/2 
           xl=     -2e-08                  xw=     -1e-08         
           a0=          2                 ags=   0.428939 V^-1    
           b0=-6.37867e-09 meter            b1=     -1e-07 meter   
         keta= -0.0127717 V^-1           voff= -0.0882278 V       
        ngate=          0 cm^-3           vbx=          0 V       
          vbm=         -3 V                xt=   1.55e-07 meter   
         vth0=   0.362786 V               nch= 2.3549e+17 cm^-3   
         nsub=      6e+16 cm^-3           nlx=1.67568e-07 meter   
       gamma1=          0 V^-1/2       gamma2=          0 V^-1/2  
           k1=   0.587303 V^1/2            k2= 0.00479305         
           k3=      0.001                 k3b=    2.27361 V^-1    
           w0=      1e-07 meter          dvt0=    1.78384         
         dvt1=   0.535428                dvt2=-0.00124365 V^-1    
        dvt0w=          0 meter^-1      dvt1w=          0 meter^-1
        dvt2w=          0 V^-1           dsub=  0.0173531         
         eta0= 0.00245516                etab=          1 V^-1    
           u0=    263.329 cm^2/V/sec         ua=-1.35975e-09 m/V     
           ub=2.25012e-18 (m/V)^2          uc=5.20448e-11 V^-1    
         vsat=     108343 m/sec            a1=0.000534764 v^-1    
           a2=    0.83702               delta=       0.01 V       
         rdsw=        150 ohm-um         prwg=        0.5 V^-1    
         prwb=       -0.2 V^-1/2           wr=          1         
         pclm=   0.730335             pdiblc1=    0.22463         
      pdiblc2= 0.00222053             pdiblcb=       -0.1 V^-1    
       pscbe1=8.69756e+09 V/m          pscbe2=      5e-10 V/m     
        drout=   0.768542                pvag=          0         
      nfactor=        2.5                cdsc=    0.00024 f/m^2   
        cdscb=          0 f/V/m^2       cdscd=          0 f/V/m^2 
          cit=          0 f/m^2        alpha0=          0 m/V     
        beta0=         30 V               dlc=7.63177e-09 meter   
          dwc=1.79871e-09 meter           clc=      1e-07 meter   
          cle=        0.6                cgso=   7.16e-10 f/m     
         cgdo=   7.16e-10 f/m            cgbo=      1e-12 f/m     
         cgsl=          0 f/m            cgdl=          0 f/m     
       ckappa=        0.6                  cf=          0 f/m     
         tnom=     300.15 K               kt1=      -0.11 V       
         kt1l=          0                 kt2=      0.022         
          ute=       -1.5                 ua1=   4.31e-09 m/V     
          ub1=  -7.61e-18 (m/V)^2         uc1=   -5.6e-11 m/V^2   
           at=      33000 m/s             prt=          0         
          using Berkeley noise model       noiMod=          1         
         noia=      1e+20                noib=      50000         
         noic=   -1.4e-12                  em=    4.1e+07         
           ef=          1                  af=          1         
           kf=          0              gdsnoi=-1.23457e-29         
          using Hspice diodes            using ACM 
          acm=         0                 hdif=         0 meter    
         ldif=         0 meter             js=         0 amp/m^2  
          jsw=         0 amp/m            xti=         0          
            n=         1                   cj=0.000972571 f/m^2    
           mj=  0.365507                   pb=  0.730054 V        
         cjsw=2.60481e-10 f/m             mjsw=       0.1          
          php=  0.730054 V               pbsw (not used)           
       cjgate=2.60481e-10 f/m            cjswg (not used)           
        mjswg (not used)                 pbswg (not used)           
        lketa= -0.0118628               wketa=0.000693821         
        pketa=4.53796e-05               pvth0=0.000428928         
          pk2=-0.000492072               peta0=2.44792e-06         
          pu0=    24.2773                 pua=9.13864e-11         
        pvsat=     1680.8               prdsw=   -4.20038         
 ***************************************************************************
 ***        model parameters  model name:   0:pfet             model type:pmos   ***
 ***************************************************************************

   *** general parameters ***
    deriv=   0.           

   ***  level 49  model parameters  ***

       hspver=    2006.03               level=         49         
      version=        3.1            paramchk=          0         
       apwarn=          1                lite=          0         
       vgslim=          0             binUnit=          1         
       capMod=          2               xpart=        0.5         
       mobMod=          1              nqsMod=          0         
       stiMod=          0                 elm=          5         
     sfvtflag=          0                 tox=      4e-09 meter   
           xj=      1e-07 meter       binflag=          0         
         lmin=          0 meter          lmax=          0 meter   
         wmin=          0 meter          wmax=          0 meter   
         lref=          0 meter          wref=          0 meter   
         lint=2.00756e-08 meter          wint=          0 meter   
        lmult=          1               wmult=          1         
           ll=          0                 lln=          1         
           lw=          0                 lwn=          1         
          lwl=          0                  wl=          0         
          wln=          1                  ww=          0         
          wwn=          1                 wwl=          0         
          dwg=-2.83557e-08 m/V             dwb=8.00307e-09 m/V^1/2 
           xl=     -2e-08                  xw=     -1e-08         
           a0=    1.78335                 ags=   0.407511 V^-1    
           b0= 1.3146e-06 meter            b1=      5e-06 meter   
         keta=  0.0137171 V^-1           voff=  -0.106465 V       
        ngate=          0 cm^-3           vbx=          0 V       
          vbm=         -3 V                xt=   1.55e-07 meter   
         vth0=  -0.406489 V               nch= 4.1589e+17 cm^-3   
         nsub=      6e+16 cm^-3           nlx=9.14321e-08 meter   
       gamma1=          0 V^-1/2       gamma2=          0 V^-1/2  
           k1=     0.5499 V^1/2            k2=  0.0389453         
           k3=          0                 k3b=    11.4952 V^-1    
           w0=      1e-06 meter          dvt0=    0.54493         
         dvt1=   0.316082                dvt2=        0.1 V^-1    
        dvt0w=          0 meter^-1      dvt1w=          0 meter^-1
        dvt2w=          0 V^-1           dsub=    0.44414         
         eta0=  0.0141703                etab= -0.0398356 V^-1    
           u0=    117.961 cm^2/V/sec         ua=1.64867e-09 m/V     
           ub=1.16506e-21 (m/V)^2          uc=     -1e-10 V^-1    
         vsat=     200000 m/sec            a1=   0.461053 v^-1    
           a2=   0.659736               delta=       0.01 V       
         rdsw=    364.944 ohm-um         prwg=        0.5 V^-1    
         prwb=   -0.11292 V^-1/2           wr=          1         
         pclm=    2.23645             pdiblc1=0.000916764         
      pdiblc2=  0.0209189             pdiblcb=-0.000956827 V^-1    
       pscbe1=1.73116e+09 V/m          pscbe2=      5e-10 V/m     
        drout=0.000997678                pvag=    14.3378         
      nfactor=          2                cdsc=    0.00024 f/m^2   
        cdscb=          0 f/V/m^2       cdscd=          0 f/V/m^2 
          cit=          0 f/m^2        alpha0=          0 m/V     
        beta0=         30 V               dlc=2.00756e-08 meter   
          dwc=          0 meter           clc=      1e-07 meter   
          cle=        0.6                cgso=   6.79e-10 f/m     
         cgdo=   6.79e-10 f/m            cgbo=      1e-12 f/m     
         cgsl=          0 f/m            cgdl=          0 f/m     
       ckappa=        0.6                  cf=          0 f/m     
         tnom=     300.15 K               kt1=      -0.11 V       
         kt1l=          0                 kt2=      0.022         
          ute=       -1.5                 ua1=   4.31e-09 m/V     
          ub1=  -7.61e-18 (m/V)^2         uc1=   -5.6e-11 m/V^2   
           at=      33000 m/s             prt=          0         
          using Berkeley noise model       noiMod=          1         
         noia=    9.9e+18                noib=       2400         
         noic=    1.4e-12                  em=    4.1e+07         
           ef=          1                  af=          1         
           kf=          0              gdsnoi=-1.23457e-29         
          using Hspice diodes            using ACM 
          acm=         0                 hdif=         0 meter    
         ldif=         0 meter             js=         0 amp/m^2  
          jsw=         0 amp/m            xti=         0          
            n=         1                   cj= 0.0011764 f/m^2    
           mj=  0.416328                   pb=  0.860712 V        
         cjsw=2.13595e-10 f/m             mjsw=  0.265446          
          php=  0.860712 V               pbsw (not used)           
       cjgate=2.13595e-10 f/m            cjswg (not used)           
        mjswg (not used)                 pbswg (not used)           
        lketa= 0.00203801               wketa=  0.0270296         
        pketa= -0.0014448               pvth0= 0.00436442         
          pk2= 0.00310448               peta0=     0.0001         
          pu0=   -2.36398                 pua=-8.41675e-11         
          pub=      1e-21               pvsat=        -50         
        prdsw=     4.4192         
 

 Warning: Pd = 0 is less than Weff = 1.7864e-06 in BSIM3 model 0:nfet element mx2 with W = 1.79e-06, L = 5.8e-07

  
      
 **info** set option symb=1 internally to help for convergence.
 *****************************************************************
 ******  option summary
 ******
 runlvl  = 3         bypass  = 2.00000000  
 **info** dc convergence successful at Newton-Raphson method 
 ******  
 *typ c_comp extraction curve for model driver

 ****** operating point information tnom=  25.000 temp=  27.000 ******
 ****** operating point status is all       simulation time is   0.0000000e+00
    node    =voltage          node    =voltage          node    =voltage

 +0:in      = 0.0000000e+00 0:in_sense= 2.9296959e-01 0:n1      = 3.2999999e+00
 +0:n2      = 3.3000000e+00 0:n3      = 3.2999999e+00 0:n_int1  = 2.6706039e+00
 +0:n_int2  = 8.7129108e-08 0:nand_n3 = 1.7425822e-07 0:oe      = 3.3000000e+00
 +0:oe_b    = 4.3839012e-08 0:out     = 1.6500000e+00 0:vdd     = 3.3000000e+00
 +0:vss     = 0.0000000e+00


 **** voltage sources

 subckt                                                              
 element      0:vcct2b       0:venat2b      0:vgndt2b      0:vint2b  
  volts    3.3000000e+00  3.3000000e+00  0.0000000e+00  0.0000000e+00
  current -3.8755437e-05  0.0000000e+00  4.4240138e-02  0.0000000e+00
  power    1.2789294e-04  0.0000000e+00  0.0000000e+00  0.0000000e+00

 subckt                 
 element      0:voutt2b 
  volts    1.6500000e+00
  current -4.4201383e-02
  power    7.2932282e-02

     total voltage source power dissipation=  7.3060175e-02   watts




 **** mosfets


 subckt                                                              
 element      0:mx1          0:mx2          0:mxi1         0:mxi2    
 model        0:pfet         0:nfet         0:pfet         0:nfet    
 region   Linear         Cutoff         Cutoff         Linear        
  id      -1.9313674e-11  1.2713674e-11 -1.9774701e-12  8.5774699e-12
  ibs      0.0000000e+00  0.0000000e+00  0.0000000e+00  0.0000000e+00
  ibd      0.0000000e+00  0.0000000e+00  0.0000000e+00  0.0000000e+00
  vgs     -3.3000000e+00  0.0000000e+00  0.0000000e+00  3.3000000e+00
  vds     -2.9089013e-08  3.2999999e+00 -3.2999999e+00  4.3839012e-08
  vbs      0.0000000e+00  0.0000000e+00  0.0000000e+00  0.0000000e+00
  vth     -4.4365094e-01  4.1890131e-01 -4.3178971e-01  4.3950168e-01
  vdsat   -2.3936420e+00  3.4350820e-02 -3.4909668e-02  1.8790404e+00
  vod     -2.8563490e+00 -4.1890131e-01  4.3178971e-01  2.8604983e+00
  beta     2.7974453e-04  9.4227928e-04  8.0280648e-05  8.6715732e-05
  gam eff  4.7347035e-01  5.7932372e-01  4.5811735e-01  5.8405856e-01
  gm       2.6728783e-12  3.4137504e-10  5.2297167e-11  0.0000000e+00
  gds      6.6395082e-04  2.6327874e-12  1.6061608e-13  1.9565837e-04
  gmb      3.0812104e-12  2.6551955e-09  1.9528430e-11  1.3710437e-12
  cdtot    1.0620297e-14  1.2790640e-15  4.0061000e-16  8.9054715e-16
  cgtot    2.1620247e-14  5.1241766e-15  1.5703553e-15  1.8080953e-15
  cstot    5.3103955e-15  1.2793924e-15  4.0062357e-16  4.2446736e-16
  cbtot    4.8888761e-15 -1.5703431e-14  7.5445484e-16  4.4335127e-16
  cgs      1.1424960e-14  1.9562735e-14  4.1538888e-16  8.9244486e-16
  cgd      1.0686431e-14  1.2654539e-15  4.0051923e-16  8.8577983e-16



 subckt                                                              
 element      0:mx5          0:mx5p         0:mx6          0:mx6p    
 model        0:pfet         0:pfet         0:pfet         0:pfet    
 region   Cutoff         Cutoff         Linear         Linear        
  id      -1.2000180e-17 -1.2000180e-17 -2.7189550e-11 -2.7189550e-11
  ibs      0.0000000e+00  0.0000000e+00  0.0000000e+00  0.0000000e+00
  ibd      0.0000000e+00  0.0000000e+00  0.0000000e+00  0.0000000e+00
  vgs      0.0000000e+00  0.0000000e+00 -3.3000000e+00 -3.3000000e+00
  vds     -4.7524158e-09 -4.7524158e-09 -4.7524158e-09 -4.7524158e-09
  vbs      0.0000000e+00  0.0000000e+00  0.0000000e+00  0.0000000e+00
  vth     -4.4565096e-01 -4.4565096e-01 -4.4565096e-01 -4.4565096e-01
  vdsat   -3.6337311e-02 -3.6337311e-02 -2.4612341e+00 -2.4612341e+00
  vod      4.4565096e-01  4.4565096e-01 -2.8543490e+00 -2.8543490e+00
  beta     4.4251460e-03  4.4251460e-03  2.3920924e-03  2.3920924e-03
  gam eff  4.7615198e-01  4.7615198e-01  4.7615198e-01  4.7615198e-01
  gm       3.1751485e-16  3.1751485e-16  3.5067331e-12  3.5067331e-12
  gds      2.5250693e-09  2.5250693e-09  5.7212060e-03  5.7212060e-03
  gmb      1.2517665e-16  1.2517665e-16  4.3190979e-12  4.3190979e-12
  cdtot    2.1789628e-14  2.1789628e-14  9.3229225e-14  9.3229225e-14
  cgtot    8.5664585e-14  8.5664585e-14  1.9325288e-13  1.9325288e-13
  cstot    2.1789369e-14  2.1789369e-14  4.9637447e-14  4.9637447e-14
  cbtot    4.0643317e-14  4.0643317e-14  4.3698597e-14  4.3698597e-14
  cgs      2.3236940e-14  2.3236940e-14  1.0303195e-13  1.0303195e-13
  cgd      2.1784781e-14  2.1784781e-14  9.5546198e-14  9.5546198e-14



 subckt                                                              
 element      0:mx7          0:mx8          0:mx9          0:mx9p    
 model        0:nfet         0:nfet         0:pfet         0:pfet    
 region   Subth          Cutoff         Cutoff         Cutoff        
  id       5.0449723e-11  4.3067307e-11 -7.9284107e-11 -7.9284107e-11
  ibs      0.0000000e+00  0.0000000e+00  0.0000000e+00  0.0000000e+00
  ibd      0.0000000e+00  0.0000000e+00  0.0000000e+00  0.0000000e+00
  vgs      6.2939601e-01  0.0000000e+00  0.0000000e+00  0.0000000e+00
  vds      6.2939600e-01  2.6706039e+00 -3.2999998e+00 -3.2999998e+00
  vbs     -2.6706039e+00  0.0000000e+00  0.0000000e+00  0.0000000e+00
  vth      9.9966410e-01  4.2209449e-01 -4.4524908e-01 -4.4524908e-01
  vdsat    4.5531206e-02  3.4343617e-02 -3.6337297e-02 -3.6337297e-02
  vod     -3.7026809e-01 -4.2209449e-01  4.4524908e-01  4.4524908e-01
  beta     3.5818579e-03  3.6167527e-03  4.4262163e-03  4.4262163e-03
  gam eff  5.6975006e-01  5.7864440e-01  4.7615198e-01  4.7615198e-01
  gm       1.6000521e-09  1.1565000e-09  2.0977867e-09  2.0977867e-09
  gds      4.6446251e-12  8.9948780e-12  6.3904119e-12  6.3904119e-12
  gmb      2.6294402e-10  7.3524298e-09  8.1924800e-10  8.1924800e-10
  cdtot    5.1454642e-15  5.1454635e-15  2.1789110e-14  2.1789110e-14
  cgtot    1.5254241e-14  2.0627576e-14  8.5656143e-14  8.5656143e-14
  cstot    5.1455697e-15  5.1464817e-15  2.1789633e-14  2.1789633e-14
  cbtot    4.9554433e-15 -4.9257971e-14  4.0680347e-14  4.0680347e-14
  cgs      5.1539102e-15  6.4796634e-14  2.3191853e-14  2.3191853e-14
  cgd      5.1449182e-15  5.0906730e-15  2.1784247e-14  2.1784247e-14



 subckt                                                              
 element      0:mx10         0:mx10p        0:mx11         0:mx12    
 model        0:pfet         0:pfet         0:nfet         0:nfet    
 region   Cutoff         Cutoff         Linear         Linear        
  id      -7.9284168e-11 -7.9284168e-11  3.4353655e-10  3.4353655e-10
  ibs      0.0000000e+00  0.0000000e+00  0.0000000e+00  0.0000000e+00
  ibd      0.0000000e+00  0.0000000e+00  0.0000000e+00  0.0000000e+00
  vgs     -2.9089013e-08 -2.9089013e-08  3.2999999e+00  3.2999999e+00
