 ****** PrimeSim HSPICE -- T-2022.06 win64 (May 20 2022 7637141) ******
  Copyright (c) 1986 - 2025 by Synopsys, Inc. All Rights Reserved.
  This software and the associated documentation are proprietary
  to Synopsys, Inc. This software may only be used in accordance
  with the terms and conditions of a written license agreement with
  Synopsys, Inc. All other use, reproduction, or distribution of
  this software is strictly prohibited.
  Input File: driver\pretest_out.sp                                             
  Command line options: C:\synopsys\Hspice_T-2022.06\WIN64\hspice.com -i driver\pretest_out.sp -o driver\pretest_out
  Start time: Sat Dec  6 14:06:54 2025
  lic:  
  lic: FLEXlm: SDK_12.10 
  lic: USER:   sh3qm                HOSTNAME: rd78ece-emclab 
  lic: HOSTID: 00ff89f5aa52         PID:      18120 
  lic: Using FLEXlm license file: 
  lic: 1704@synopsys.lic.mst.edu 
  lic: Checkout 1 hspice 
  lic: License/Maintenance for hspice will expire on 04-may-2026/2025.06 
  lic: 1(in_use)/50(total) FLOATING license(s) on SERVER 1704@synopsys.lic.mst.e
 du 
  lic:   
1****** PrimeSim HSPICE -- T-2022.06 win64 (May 20 2022 7637141) ******
 ******  
 * transistor model test deck for driver

 ****** mos   model parameters tnom=  25.000 temp=  25.000 ******
 ***************************************************************************
 ***        model parameters  model name:   0:nfet             model type:nmos   ***
 ***************************************************************************

   *** general parameters ***
    deriv=   0.           

   ***  level 49  model parameters  ***

       hspver=    2006.03               level=         49         
      version=        3.1            paramchk=          0         
       apwarn=          1                lite=          0         
       vgslim=          0             binUnit=          1         
       capMod=          2               xpart=        0.5         
       mobMod=          1              nqsMod=          0         
       stiMod=          0                 elm=          5         
     sfvtflag=          0                 tox=      4e-09 meter   
           xj=      1e-07 meter       binflag=          0         
         lmin=          0 meter          lmax=          0 meter   
         wmin=          0 meter          wmax=          0 meter   
         lref=          0 meter          wref=          0 meter   
         lint=7.63177e-09 meter          wint=1.79871e-09 meter   
        lmult=          1               wmult=          1         
           ll=          0                 lln=          1         
           lw=          0                 lwn=          1         
          lwl=          0                  wl=          0         
          wln=          1                  ww=          0         
          wwn=          1                 wwl=          0         
          dwg=-3.2689e-09 m/V             dwb=7.68589e-09 m/V^1/2 
           xl=     -2e-08                  xw=     -1e-08         
           a0=          2                 ags=   0.428939 V^-1    
           b0=-6.37867e-09 meter            b1=     -1e-07 meter   
         keta= -0.0127717 V^-1           voff= -0.0882278 V       
        ngate=          0 cm^-3           vbx=          0 V       
          vbm=         -3 V                xt=   1.55e-07 meter   
         vth0=   0.362786 V               nch= 2.3549e+17 cm^-3   
         nsub=      6e+16 cm^-3           nlx=1.67568e-07 meter   
       gamma1=          0 V^-1/2       gamma2=          0 V^-1/2  
           k1=   0.587303 V^1/2            k2= 0.00479305         
           k3=      0.001                 k3b=    2.27361 V^-1    
           w0=      1e-07 meter          dvt0=    1.78384         
         dvt1=   0.535428                dvt2=-0.00124365 V^-1    
        dvt0w=          0 meter^-1      dvt1w=          0 meter^-1
        dvt2w=          0 V^-1           dsub=  0.0173531         
         eta0= 0.00245516                etab=          1 V^-1    
           u0=    263.329 cm^2/V/sec         ua=-1.35975e-09 m/V     
           ub=2.25012e-18 (m/V)^2          uc=5.20448e-11 V^-1    
         vsat=     108343 m/sec            a1=0.000534764 v^-1    
           a2=    0.83702               delta=       0.01 V       
         rdsw=        150 ohm-um         prwg=        0.5 V^-1    
         prwb=       -0.2 V^-1/2           wr=          1         
         pclm=   0.730335             pdiblc1=    0.22463         
      pdiblc2= 0.00222053             pdiblcb=       -0.1 V^-1    
       pscbe1=8.69756e+09 V/m          pscbe2=      5e-10 V/m     
        drout=   0.768542                pvag=          0         
      nfactor=        2.5                cdsc=    0.00024 f/m^2   
        cdscb=          0 f/V/m^2       cdscd=          0 f/V/m^2 
          cit=          0 f/m^2        alpha0=          0 m/V     
        beta0=         30 V               dlc=7.63177e-09 meter   
          dwc=1.79871e-09 meter           clc=      1e-07 meter   
          cle=        0.6                cgso=   7.16e-10 f/m     
         cgdo=   7.16e-10 f/m            cgbo=      1e-12 f/m     
         cgsl=          0 f/m            cgdl=          0 f/m     
       ckappa=        0.6                  cf=          0 f/m     
         tnom=     300.15 K               kt1=      -0.11 V       
         kt1l=          0                 kt2=      0.022         
          ute=       -1.5                 ua1=   4.31e-09 m/V     
          ub1=  -7.61e-18 (m/V)^2         uc1=   -5.6e-11 m/V^2   
           at=      33000 m/s             prt=          0         
          using Berkeley noise model       noiMod=          1         
         noia=      1e+20                noib=      50000         
         noic=   -1.4e-12                  em=    4.1e+07         
           ef=          1                  af=          1         
           kf=          0              gdsnoi=-1.23457e-29         
          using Hspice diodes            using ACM 
          acm=         0                 hdif=         0 meter    
         ldif=         0 meter             js=         0 amp/m^2  
          jsw=         0 amp/m            xti=         0          
            n=         1                   cj=0.000972571 f/m^2    
           mj=  0.365507                   pb=  0.730054 V        
         cjsw=2.60481e-10 f/m             mjsw=       0.1          
          php=  0.730054 V               pbsw (not used)           
       cjgate=2.60481e-10 f/m            cjswg (not used)           
        mjswg (not used)                 pbswg (not used)           
        lketa= -0.0118628               wketa=0.000693821         
        pketa=4.53796e-05               pvth0=0.000428928         
          pk2=-0.000492072               peta0=2.44792e-06         
          pu0=    24.2773                 pua=9.13864e-11         
        pvsat=     1680.8               prdsw=   -4.20038         
 ***************************************************************************
 ***        model parameters  model name:   0:pfet             model type:pmos   ***
 ***************************************************************************

   *** general parameters ***
    deriv=   0.           

   ***  level 49  model parameters  ***

       hspver=    2006.03               level=         49         
      version=        3.1            paramchk=          0         
       apwarn=          1                lite=          0         
       vgslim=          0             binUnit=          1         
       capMod=          2               xpart=        0.5         
       mobMod=          1              nqsMod=          0         
       stiMod=          0                 elm=          5         
     sfvtflag=          0                 tox=      4e-09 meter   
           xj=      1e-07 meter       binflag=          0         
         lmin=          0 meter          lmax=          0 meter   
         wmin=          0 meter          wmax=          0 meter   
         lref=          0 meter          wref=          0 meter   
         lint=2.00756e-08 meter          wint=          0 meter   
        lmult=          1               wmult=          1         
           ll=          0                 lln=          1         
           lw=          0                 lwn=          1         
          lwl=          0                  wl=          0         
          wln=          1                  ww=          0         
          wwn=          1                 wwl=          0         
          dwg=-2.83557e-08 m/V             dwb=8.00307e-09 m/V^1/2 
           xl=     -2e-08                  xw=     -1e-08         
           a0=    1.78335                 ags=   0.407511 V^-1    
           b0= 1.3146e-06 meter            b1=      5e-06 meter   
         keta=  0.0137171 V^-1           voff=  -0.106465 V       
        ngate=          0 cm^-3           vbx=          0 V       
          vbm=         -3 V                xt=   1.55e-07 meter   
         vth0=  -0.406489 V               nch= 4.1589e+17 cm^-3   
         nsub=      6e+16 cm^-3           nlx=9.14321e-08 meter   
       gamma1=          0 V^-1/2       gamma2=          0 V^-1/2  
           k1=     0.5499 V^1/2            k2=  0.0389453         
           k3=          0                 k3b=    11.4952 V^-1    
           w0=      1e-06 meter          dvt0=    0.54493         
         dvt1=   0.316082                dvt2=        0.1 V^-1    
        dvt0w=          0 meter^-1      dvt1w=          0 meter^-1
        dvt2w=          0 V^-1           dsub=    0.44414         
         eta0=  0.0141703                etab= -0.0398356 V^-1    
           u0=    117.961 cm^2/V/sec         ua=1.64867e-09 m/V     
           ub=1.16506e-21 (m/V)^2          uc=     -1e-10 V^-1    
         vsat=     200000 m/sec            a1=   0.461053 v^-1    
           a2=   0.659736               delta=       0.01 V       
         rdsw=    364.944 ohm-um         prwg=        0.5 V^-1    
         prwb=   -0.11292 V^-1/2           wr=          1         
         pclm=    2.23645             pdiblc1=0.000916764         
      pdiblc2=  0.0209189             pdiblcb=-0.000956827 V^-1    
       pscbe1=1.73116e+09 V/m          pscbe2=      5e-10 V/m     
        drout=0.000997678                pvag=    14.3378         
      nfactor=          2                cdsc=    0.00024 f/m^2   
        cdscb=          0 f/V/m^2       cdscd=          0 f/V/m^2 
          cit=          0 f/m^2        alpha0=          0 m/V     
        beta0=         30 V               dlc=2.00756e-08 meter   
          dwc=          0 meter           clc=      1e-07 meter   
          cle=        0.6                cgso=   6.79e-10 f/m     
         cgdo=   6.79e-10 f/m            cgbo=      1e-12 f/m     
         cgsl=          0 f/m            cgdl=          0 f/m     
       ckappa=        0.6                  cf=          0 f/m     
         tnom=     300.15 K               kt1=      -0.11 V       
         kt1l=          0                 kt2=      0.022         
          ute=       -1.5                 ua1=   4.31e-09 m/V     
          ub1=  -7.61e-18 (m/V)^2         uc1=   -5.6e-11 m/V^2   
           at=      33000 m/s             prt=          0         
          using Berkeley noise model       noiMod=          1         
         noia=    9.9e+18                noib=       2400         
         noic=    1.4e-12                  em=    4.1e+07         
           ef=          1                  af=          1         
           kf=          0              gdsnoi=-1.23457e-29         
          using Hspice diodes            using ACM 
          acm=         0                 hdif=         0 meter    
         ldif=         0 meter             js=         0 amp/m^2  
          jsw=         0 amp/m            xti=         0          
            n=         1                   cj= 0.0011764 f/m^2    
           mj=  0.416328                   pb=  0.860712 V        
         cjsw=2.13595e-10 f/m             mjsw=  0.265446          
          php=  0.860712 V               pbsw (not used)           
       cjgate=2.13595e-10 f/m            cjswg (not used)           
        mjswg (not used)                 pbswg (not used)           
        lketa= 0.00203801               wketa=  0.0270296         
        pketa= -0.0014448               pvth0= 0.00436442         
          pk2= 0.00310448               peta0=     0.0001         
          pu0=   -2.36398                 pua=-8.41675e-11         
          pub=      1e-21               pvsat=        -50         
        prdsw=     4.4192         
  **info** (driver\pretest_out.sp:138) DC voltage reset to initial transient source value in source 0:vent2b. new dc=0.3300D+01
 

 Warning: Pd = 0 is less than Weff = 1.7864e-06 in BSIM3 model 0:nfet element mx2 with W = 1.79e-06, L = 5.8e-07

  
      
 **info** set option symb=1 internally to help for convergence.
 *****************************************************************
 ******  option summary
 ******
 runlvl  = 4         bypass  = 2.00000000  
 **info** dc convergence successful at Newton-Raphson method 
 ******  
 * transistor model test deck for driver

 ****** operating point information tnom=  25.000 temp=  27.000 ******
 ****** operating point status is voltage   simulation time is   0.0000000e+00
    node    =voltage          node    =voltage          node    =voltage

 +0:dum17854= 1.6500000e+00 0:in      = 0.0000000e+00 0:in_sense= 3.2806142e+00
 +0:n1      = 3.2999999e+00 0:n2      = 3.3000000e+00 0:n3      = 3.2999999e+00
 +0:n_int1  = 2.6706039e+00 0:n_int2  = 8.7129108e-08 0:nand_n3 = 1.7425822e-07
 +0:oe      = 3.3000000e+00 0:oe_b    = 4.3839012e-08 0:out     = 5.9320324e-01
 +0:vdd     = 3.3000000e+00 0:vss     = 0.0000000e+00

 ******
 * transistor model test deck for driver

 ****** transient analysis tnom=  25.000 temp=  27.000 ******
x

 time             voltage        current       
                 out            vfixt2b        
  0.00000000e+00  5.9320324e-01 -2.1135935e-02 
  2.00000000e-11  6.1949109e-01 -2.0610178e-02 
  4.00000000e-11  5.8924365e-01 -2.1215127e-02 
  6.00000000e-11  5.8627247e-01 -2.1274551e-02 
  8.00000000e-11  5.8617743e-01 -2.1276451e-02 
  1.00000000e-10  5.8611629e-01 -2.1277674e-02 
  1.20000000e-10  5.8576714e-01 -2.1284657e-02 
  1.40000000e-10  5.8504265e-01 -2.1299147e-02 
  1.60000000e-10  5.8447233e-01 -2.1310553e-02 
  1.80000000e-10  5.8440150e-01 -2.1311970e-02 
  2.00000000e-10  5.8440746e-01 -2.1311851e-02 
  2.20000000e-10  5.8449639e-01 -2.1310072e-02 
  2.40000000e-10  5.8457925e-01 -2.1308415e-02 
  2.60000000e-10  5.8462275e-01 -2.1307545e-02 
  2.80000000e-10  5.8466625e-01 -2.1306675e-02 
  3.00000000e-10  5.8466957e-01 -2.1306609e-02 
  3.20000000e-10  5.8464168e-01 -2.1307166e-02 
  3.40000000e-10  5.8426398e-01 -2.1314720e-02 
  3.60000000e-10  5.8313573e-01 -2.1337285e-02 
  3.80000000e-10  5.8200748e-01 -2.1359850e-02 
  4.00000000e-10  5.8087923e-01 -2.1382415e-02 
  4.20000000e-10  5.7975097e-01 -2.1404981e-02 
  4.40000000e-10  5.7862272e-01 -2.1427546e-02 
  4.60000000e-10  5.7749447e-01 -2.1450111e-02 
  4.80000000e-10  5.7694066e-01 -2.1461187e-02 
  5.00000000e-10  5.8009193e-01 -2.1398161e-02 
  5.20000000e-10  5.8324319e-01 -2.1335136e-02 
  5.40000000e-10  5.8639446e-01 -2.1272111e-02 
  5.60000000e-10  5.8760357e-01 -2.1247929e-02 
  5.80000000e-10  5.8860637e-01 -2.1227873e-02 
  6.00000000e-10  5.8960916e-01 -2.1207817e-02 
  6.20000000e-10  5.9061195e-01 -2.1187761e-02 
  6.40000000e-10  5.9213142e-01 -2.1157372e-02 
  6.60000000e-10  5.9457831e-01 -2.1108434e-02 
  6.80000000e-10  5.9702521e-01 -2.1059496e-02 
  7.00000000e-10  5.9947211e-01 -2.1010558e-02 
  7.20000000e-10  6.0191901e-01 -2.0961620e-02 
  7.40000000e-10  6.0407157e-01 -2.0918569e-02 
  7.60000000e-10  6.0451049e-01 -2.0909790e-02 
  7.80000000e-10  6.0494941e-01 -2.0901012e-02 
  8.00000000e-10  6.0538833e-01 -2.0892233e-02 
  8.20000000e-10  6.0582724e-01 -2.0883455e-02 
  8.40000000e-10  6.0696971e-01 -2.0860606e-02 
  8.60000000e-10  6.0837261e-01 -2.0832548e-02 
  8.80000000e-10  6.0977552e-01 -2.0804490e-02 
  9.00000000e-10  6.1698125e-01 -2.0660375e-02 
  9.20000000e-10  6.2497711e-01 -2.0500458e-02 
  9.40000000e-10  6.3429405e-01 -2.0314119e-02 
  9.60000000e-10  6.4488886e-01 -2.0102223e-02 
  9.80000000e-10  6.5617617e-01 -1.9876477e-02 
  1.00000000e-09  6.7175887e-01 -1.9564823e-02 
  1.02000000e-09  6.8830783e-01 -1.9233843e-02 
  1.04000000e-09  7.1091479e-01 -1.8781704e-02 
  1.06000000e-09  7.3352174e-01 -1.8329565e-02 
  1.08000000e-09  7.6380313e-01 -1.7723937e-02 
  1.10000000e-09  8.1007787e-01 -1.6798443e-02 
  1.12000000e-09  8.5635261e-01 -1.5872948e-02 
  1.14000000e-09  9.1407888e-01 -1.4718422e-02 
  1.16000000e-09  9.8414538e-01 -1.3317092e-02 
  1.18000000e-09  1.0542119e+00 -1.1915762e-02 
  1.20000000e-09  1.1352886e+00 -1.0294228e-02 
  1.22000000e-09  1.2226020e+00 -8.5479605e-03 
  1.24000000e-09  1.3099153e+00 -6.8016932e-03 
  1.26000000e-09  1.3943894e+00 -5.1122127e-03 
  1.28000000e-09  1.4734256e+00 -3.5314881e-03 
  1.30000000e-09  1.5524618e+00 -1.9507635e-03 
  1.32000000e-09  1.6314981e+00 -3.7003898e-04 
  1.34000000e-09  1.7003478e+00  1.0069564e-03 
  1.36000000e-09  1.7615402e+00  2.2308038e-03 
  1.38000000e-09  1.8203229e+00  3.4064573e-03 
  1.40000000e-09  1.8740492e+00  4.4809832e-03 
  1.42000000e-09  1.9251201e+00  5.5024012e-03 
  1.44000000e-09  1.9696873e+00  6.3937457e-03 
  1.46000000e-09  2.0101806e+00  7.2036129e-03 
  1.48000000e-09  2.0463380e+00  7.9267594e-03 
  1.50000000e-09  2.0784795e+00  8.5695905e-03 
  1.52000000e-09  2.1065666e+00  9.1313316e-03 
  1.54000000e-09  2.1301717e+00  9.6034331e-03 
  1.56000000e-09  2.1537767e+00  1.0075535e-02 
  1.58000000e-09  2.1700583e+00  1.0401166e-02 
  1.60000000e-09  2.1858913e+00  1.0717826e-02 
  1.62000000e-09  2.2017243e+00  1.1034487e-02 
  1.64000000e-09  2.2175574e+00  1.1351147e-02 
  1.66000000e-09  2.2314843e+00  1.1629686e-02 
  1.68000000e-09  2.2423516e+00  1.1847033e-02 
  1.70000000e-09  2.2532190e+00  1.2064380e-02 
  1.72000000e-09  2.2640864e+00  1.2281727e-02 
  1.74000000e-09  2.2743674e+00  1.2487349e-02 
  1.76000000e-09  2.2810236e+00  1.2620472e-02 
  1.78000000e-09  2.2876797e+00  1.2753595e-02 
  1.80000000e-09  2.2943359e+00  1.2886718e-02 
  1.82000000e-09  2.3009920e+00  1.3019841e-02 
  1.84000000e-09  2.3076482e+00  1.3152964e-02 
  1.86000000e-09  2.3143443e+00  1.3286887e-02 
  1.88000000e-09  2.3209495e+00  1.3418990e-02 
  1.90000000e-09  2.3268594e+00  1.3537188e-02 
  1.92000000e-09  2.3318862e+00  1.3637723e-02 
  1.94000000e-09  2.3369130e+00  1.3738259e-02 
  1.96000000e-09  2.3419397e+00  1.3838795e-02 
  1.98000000e-09  2.3468107e+00  1.3936215e-02 
  2.00000000e-09  2.3509661e+00  1.4019322e-02 
  2.02000000e-09  2.3551214e+00  1.4102428e-02 
  2.04000000e-09  2.3592768e+00  1.4185535e-02 
  2.06000000e-09  2.3634321e+00  1.4268642e-02 
  2.08000000e-09  2.3675874e+00  1.4351749e-02 
  2.10000000e-09  2.3717428e+00  1.4434856e-02 
  2.12000000e-09  2.3751100e+00  1.4502199e-02 
  2.14000000e-09  2.3783317e+00  1.4566634e-02 
  2.16000000e-09  2.3815534e+00  1.4631068e-02 
  2.18000000e-09  2.3847751e+00  1.4695502e-02 
  2.20000000e-09  2.3879968e+00  1.4759936e-02 
  2.22000000e-09  2.3912185e+00  1.4824371e-02 
  2.24000000e-09  2.3944402e+00  1.4888805e-02 
  2.26000000e-09  2.3976620e+00  1.4953239e-02 
  2.28000000e-09  2.4005230e+00  1.5010460e-02 
  2.30000000e-09  2.4030014e+00  1.5060028e-02 
  2.32000000e-09  2.4054798e+00  1.5109596e-02 
  2.34000000e-09  2.4079582e+00  1.5159164e-02 
  2.36000000e-09  2.4104366e+00  1.5208733e-02 
  2.38000000e-09  2.4129150e+00  1.5258301e-02 
  2.40000000e-09  2.4153934e+00  1.5307869e-02 
  2.42000000e-09  2.4178718e+00  1.5357437e-02 
